T448C 001:461.664   SEGGER J-Link V6.98c Log File
T448C 001:461.857   DLL Compiled: Mar 16 2021 12:19:26
T448C 001:461.867   Logging started @ 2021-06-04 13:35
T448C 001:461.875 - 1461.880ms
T448C 001:461.891 JLINK_SetWarnOutHandler(...)
T448C 001:461.916 - 0.029ms
T448C 001:461.928 JLINK_OpenEx(...)
T448C 001:463.636   Firmware: J-Link V10 compiled Feb  4 2021 12:58:41
T448C 001:463.934   Firmware: J-Link V10 compiled Feb  4 2021 12:58:41
T448C 001:464.184   Decompressing FW timestamp took 186 us
T448C 001:466.596   Hardware: V10.10
T448C 001:466.635   S/N: 260101904
T448C 001:466.654   OEM: SEGGER-EDU
T448C 001:466.667   Feature(s): FlashBP, GDB
T448C 001:468.634   TELNET listener socket opened on port 19021
T448C 001:468.933   WEBSRV Starting webserver
T448C 001:469.150   WEBSRV Webserver running on local port 19080
T448C 001:469.191 - 7.269ms returns "O.K."
T448C 001:469.238 JLINK_GetEmuCaps()
T448C 001:469.251 - 0.020ms returns 0xB9FF7BBF
T448C 001:469.276 JLINK_TIF_GetAvailable(...)
T448C 001:469.453 - 0.201ms
T448C 001:469.509 JLINK_SetErrorOutHandler(...)
T448C 001:469.539 - 0.037ms
T448C 001:469.593 JLINK_ExecCommand("ProjectFile = "C:\Users\aitor\OneDrive\Escritorio\Mondragon\Maila2\Sehileko_2\POPBL4\EcoLanda\EcoLanda\JLinkSettings.ini"", ...). 
T448C 001:483.349   Ref file found at: C:\Keil_v5\ARM\Segger\JLinkDevices.ref
T448C 001:483.463   XML referenced by ref file: C:\Program Files (x86)\SEGGER\JLink\JLinkDevices.xml
T448C 001:484.349   C:\Program Files (x86)\SEGGER\JLink\JLinkDevices.xml evaluated successfully.
T448C 001:526.847 - 57.270ms returns 0x00
T448C 001:526.972 JLINK_ExecCommand("Device = STM32F407ZGTx", ...). 
T448C 001:527.610   Device "STM32F407ZG" selected.
T448C 001:527.970 - 0.984ms returns 0x00
T448C 001:528.027 JLINK_GetHardwareVersion()
T448C 001:528.037 - 0.014ms returns 101000
T448C 001:528.053 JLINK_GetDLLVersion()
T448C 001:528.063 - 0.013ms returns 69803
T448C 001:528.075 JLINK_GetOEMString(...)
T448C 001:528.109 JLINK_GetDLLVersion()
T448C 001:528.118 - 0.013ms returns 69803
T448C 001:528.130 JLINK_GetCompileDateTime()
T448C 001:528.139 - 0.013ms
T448C 001:528.158 JLINK_GetFirmwareString(...)
T448C 001:528.167 - 0.013ms
T448C 001:528.185 JLINK_GetHardwareVersion()
T448C 001:528.194 - 0.013ms returns 101000
T448C 001:528.212 JLINK_GetSN()
T448C 001:528.221 - 0.014ms returns 260101904
T448C 001:528.238 JLINK_GetOEMString(...)
T448C 001:528.268 JLINK_TIF_Select(JLINKARM_TIF_SWD)
T448C 001:529.246 - 0.990ms returns 0x00
T448C 001:529.270 JLINK_HasError()
T448C 001:529.308 JLINK_SetSpeed(5000)
T448C 001:529.582 - 0.299ms
T448C 001:529.618 JLINK_GetId()
T448C 001:531.067   Found SW-DP with ID 0x2BA01477
T448C 001:548.666   Found SW-DP with ID 0x2BA01477
T448C 001:550.582   DPIDR: 0x2BA01477
T448C 001:550.608   Scanning AP map to find all available APs
T448C 001:551.008   AP[1]: Stopped AP scan as end of AP map has been reached
T448C 001:551.037   AP[0]: AHB-AP (IDR: 0x24770011)
T448C 001:551.057   Iterating through AP map to find AHB-AP to use
T448C 001:551.554   AP[0]: Core found
T448C 001:551.578   AP[0]: AHB-AP ROM base: 0xE00FF000
T448C 001:551.787   CPUID register: 0x410FC241. Implementer code: 0x41 (ARM)
T448C 001:551.824   Found Cortex-M4 r0p1, Little endian.
T448C 001:652.514   -- Max. mem block: 0x000045C0
T448C 001:652.746   CPU_ReadMem(4 bytes @ 0xE000EDF0)
T448C 001:653.257   CPU_ReadMem(4 bytes @ 0xE0002000)
T448C 001:653.777   FPUnit: 6 code (BP) slots and 2 literal slots
T448C 001:653.824   CPU_ReadMem(4 bytes @ 0xE000EDFC)
T448C 001:654.243   CPU_WriteMem(4 bytes @ 0xE000EDFC)
T448C 001:654.664   CPU_ReadMem(4 bytes @ 0xE0001000)
T448C 001:655.067   CPU_WriteMem(4 bytes @ 0xE0001000)
T448C 001:655.524   CPU_ReadMem(4 bytes @ 0xE000ED88)
T448C 001:655.928   CPU_WriteMem(4 bytes @ 0xE000ED88)
T448C 001:656.256   CPU_ReadMem(4 bytes @ 0xE000ED88)
T448C 001:656.583   CPU_WriteMem(4 bytes @ 0xE000ED88)
T448C 001:657.017   CoreSight components:
T448C 001:657.101   ROMTbl[0] @ E00FF000
T448C 001:657.147   CPU_ReadMem(64 bytes @ 0xE00FF000)
T448C 001:657.901   CPU_ReadMem(32 bytes @ 0xE000EFE0)
T448C 001:658.514   ROMTbl[0][0]: E000E000, CID: B105E00D, PID: 000BB00C SCS-M7
T448C 001:658.548   CPU_ReadMem(32 bytes @ 0xE0001FE0)
T448C 001:659.131   ROMTbl[0][1]: E0001000, CID: B105E00D, PID: 003BB002 DWT
T448C 001:659.164   CPU_ReadMem(32 bytes @ 0xE0002FE0)
T448C 001:659.574   ROMTbl[0][2]: E0002000, CID: B105E00D, PID: 002BB003 FPB
T448C 001:659.591   CPU_ReadMem(32 bytes @ 0xE0000FE0)
T448C 001:659.983   ROMTbl[0][3]: E0000000, CID: B105E00D, PID: 003BB001 ITM
T448C 001:660.000   CPU_ReadMem(32 bytes @ 0xE0040FE0)
T448C 001:660.385   ROMTbl[0][4]: E0040000, CID: B105900D, PID: 000BB9A1 TPIU
T448C 001:660.402   CPU_ReadMem(32 bytes @ 0xE0041FE0)
T448C 001:660.760   ROMTbl[0][5]: E0041000, CID: B105900D, PID: 000BB925 ETM
T448C 001:661.041 - 131.430ms returns 0x2BA01477
T448C 001:661.078 JLINK_GetDLLVersion()
T448C 001:661.088 - 0.013ms returns 69803
T448C 001:661.102 JLINK_CORE_GetFound()
T448C 001:661.111 - 0.013ms returns 0xE0000FF
T448C 001:661.129 JLINK_GetDebugInfo(0x100 = JLINKARM_ROM_TABLE_ADDR_INDEX)
T448C 001:661.139   Value=0xE00FF000
T448C 001:661.152 - 0.027ms returns 0
T448C 001:661.209 JLINK_GetDebugInfo(0x100 = JLINKARM_ROM_TABLE_ADDR_INDEX)
T448C 001:661.250   Value=0xE00FF000
T448C 001:661.263 - 0.058ms returns 0
T448C 001:661.275 JLINK_GetDebugInfo(0x101 = JLINKARM_DEBUG_INFO_ETM_ADDR_INDEX)
T448C 001:661.284   Value=0xE0041000
T448C 001:661.297 - 0.026ms returns 0
T448C 001:661.309 JLINK_ReadMemEx(0xE0041FD0, 0x20 Bytes, Flags = 0x02000004)
T448C 001:661.330   CPU_ReadMem(32 bytes @ 0xE0041FD0)
T448C 001:661.660   Data:  04 00 00 00 00 00 00 00 00 00 00 00 00 00 00 00 ...
T448C 001:661.691 - 0.386ms returns 32 (0x20)
T448C 001:661.706 JLINK_GetDebugInfo(0x102 = JLINKARM_DEBUG_INFO_MTB_ADDR_INDEX)
T448C 001:661.716   Value=0x00000000
T448C 001:661.728 - 0.027ms returns 0
T448C 001:661.740 JLINK_GetDebugInfo(0x103 = JLINKARM_DEBUG_INFO_TPIU_ADDR_INDEX)
T448C 001:661.749   Value=0xE0040000
T448C 001:661.762 - 0.026ms returns 0
T448C 001:661.774 JLINK_GetDebugInfo(0x104 = JLINKARM_DEBUG_INFO_ITM_ADDR_INDEX)
T448C 001:661.783   Value=0xE0000000
T448C 001:661.796 - 0.026ms returns 0
T448C 001:661.807 JLINK_GetDebugInfo(0x105 = JLINKARM_DEBUG_INFO_DWT_ADDR_INDEX)
T448C 001:661.817   Value=0xE0001000
T448C 001:661.846 - 0.045ms returns 0
T448C 001:661.864 JLINK_GetDebugInfo(0x106 = JLINKARM_DEBUG_INFO_FPB_ADDR_INDEX)
T448C 001:661.878   Value=0xE0002000
T448C 001:661.895 - 0.037ms returns 0
T448C 001:661.925 JLINK_GetDebugInfo(0x107 = JLINKARM_DEBUG_INFO_NVIC_ADDR_INDEX)
T448C 001:661.938   Value=0xE000E000
T448C 001:661.956 - 0.052ms returns 0
T448C 001:661.975 JLINK_GetDebugInfo(0x10C = JLINKARM_DEBUG_INFO_DBG_ADDR_INDEX)
T448C 001:661.985   Value=0xE000EDF0
T448C 001:661.998 - 0.027ms returns 0
T448C 001:662.010 JLINK_ReadMemU32(0xE000EF40, 0x1 Items)
T448C 001:662.024   CPU_ReadMem(4 bytes @ 0xE000EF40)
T448C 001:662.244   Data:  21 00 11 10
T448C 001:662.261 - 0.255ms returns 1 (0x1)
T448C 001:662.275 JLINK_ReadMemU32(0xE000EF44, 0x1 Items)
T448C 001:662.289   CPU_ReadMem(4 bytes @ 0xE000EF44)
T448C 001:662.512   Data:  11 00 00 11
T448C 001:662.529 - 0.258ms returns 1 (0x1)
T448C 001:662.543 JLINK_ReadMemU32(0xE000ED00, 0x1 Items)
T448C 001:662.557   CPU_ReadMem(4 bytes @ 0xE000ED00)
T448C 001:662.794   Data:  41 C2 0F 41
T448C 001:662.811   Debug reg: CPUID
T448C 001:662.824 - 0.285ms returns 1 (0x1)
T448C 001:662.896 JLINK_GetDebugInfo(0x10F = JLINKARM_DEBUG_INFO_HAS_CORTEX_M_SECURITY_EXT_INDEX)
T448C 001:662.913   Value=0x00000000
T448C 001:662.930 - 0.041ms returns 0
T448C 001:662.948 JLINK_HasError()
T448C 001:662.967 JLINK_SetResetType(JLINKARM_CM3_RESET_TYPE_NORMAL)
T448C 001:662.982 - 0.020ms returns JLINKARM_CM3_RESET_TYPE_NORMAL
T448C 001:662.998 JLINK_Reset()
T448C 001:663.032   CPU is running
T448C 001:663.058   CPU_WriteMem(4 bytes @ 0xE000EDF0)
T448C 001:663.295   CPU is running
T448C 001:663.313   CPU_WriteMem(4 bytes @ 0xE000EDFC)
T448C 001:663.605   Reset: Halt core after reset via DEMCR.VC_CORERESET.
T448C 001:663.986   Reset: Reset device via AIRCR.SYSRESETREQ.
T448C 001:664.004   CPU is running
T448C 001:664.018   CPU_WriteMem(4 bytes @ 0xE000ED0C)
T448C 001:717.610   CPU_ReadMem(4 bytes @ 0xE000EDF0)
T448C 001:718.257   CPU_ReadMem(4 bytes @ 0xE000EDF0)
T448C 001:719.027   CPU is running
T448C 001:719.128   CPU_WriteMem(4 bytes @ 0xE000EDF0)
T448C 001:719.919   CPU is running
T448C 001:720.020   CPU_WriteMem(4 bytes @ 0xE000EDFC)
T448C 001:726.056   CPU_ReadMem(4 bytes @ 0xE000EDF0)
T448C 001:729.660   CPU_WriteMem(4 bytes @ 0xE0002000)
T448C 001:730.353   CPU_ReadMem(4 bytes @ 0xE000EDFC)
T448C 001:731.075   CPU_ReadMem(4 bytes @ 0xE0001000)
T448C 001:731.722 - 68.778ms
T448C 001:732.092 JLINK_HasError()
T448C 001:732.205 JLINK_ReadReg(R15 (PC))
T448C 001:732.345 - 0.173ms returns 0x08000240
T448C 001:732.430 JLINK_ReadReg(XPSR)
T448C 001:732.508 - 0.098ms returns 0x01000000
T448C 001:732.561 JLINK_Halt()
T448C 001:732.598 - 0.054ms returns 0x00
T448C 001:732.645 JLINK_ReadMemU32(0xE000EDF0, 0x1 Items)
T448C 001:732.700   CPU_ReadMem(4 bytes @ 0xE000EDF0)
T448C 001:733.141   Data:  03 00 03 00
T448C 001:733.201   Debug reg: DHCSR
T448C 001:733.241 - 0.609ms returns 1 (0x1)
T448C 001:733.286 JLINK_WriteU32_64(0xE000EDF0, 0xA05F0003)
T448C 001:733.344   Debug reg: DHCSR
T448C 001:734.148   CPU_WriteMem(4 bytes @ 0xE000EDF0)
T448C 001:734.644 - 1.386ms returns 0 (0x00000000)
T448C 001:734.706 JLINK_WriteU32_64(0xE000EDFC, 0x01000000)
T448C 001:734.738   Debug reg: DEMCR
T448C 001:734.796   CPU_WriteMem(4 bytes @ 0xE000EDFC)
T448C 001:735.297 - 0.627ms returns 0 (0x00000000)
T448C 001:735.472 JLINK_GetHWStatus(...)
T448C 001:735.914 - 0.471ms returns 0
T448C 001:736.043 JLINK_GetNumBPUnits(Type = 0xFFFFFF00)
T448C 001:736.076 - 0.047ms returns 0x06
T448C 001:736.114 JLINK_GetNumBPUnits(Type = 0xF0)
T448C 001:736.141 - 0.041ms returns 0x2000
T448C 001:736.178 JLINK_GetNumWPUnits()
T448C 001:736.205 - 0.040ms returns 4
T448C 001:736.287 JLINK_GetSpeed()
T448C 001:736.315 - 0.041ms returns 5000
T448C 001:736.380 JLINK_ReadMemU32(0xE000E004, 0x1 Items)
T448C 001:736.425   CPU_ReadMem(4 bytes @ 0xE000E004)
T448C 001:736.904   Data:  02 00 00 00
T448C 001:736.960 - 0.594ms returns 1 (0x1)
T448C 001:737.006 JLINK_ReadMemU32(0xE000E004, 0x1 Items)
T448C 001:737.051   CPU_ReadMem(4 bytes @ 0xE000E004)
T448C 001:737.500   Data:  02 00 00 00
T448C 001:737.579 - 0.583ms returns 1 (0x1)
T448C 001:737.613 JLINK_WriteMemEx(0xE0001000, 0x0000001C Bytes, Flags = 0x02000004)
T448C 001:737.635   Data:  01 00 00 00 00 00 00 00 00 00 00 00 00 00 00 00 ...
T448C 001:737.678   CPU_WriteMem(28 bytes @ 0xE0001000)
T448C 001:738.196 - 0.608ms returns 0x1C
T448C 001:738.250 JLINK_HasError()
T448C 001:738.279 JLINK_ReadReg(R15 (PC))
T448C 001:738.305 - 0.036ms returns 0x08000240
T448C 001:738.332 JLINK_ReadReg(XPSR)
T448C 001:738.353 - 0.031ms returns 0x01000000
T448C 001:845.763 JLINK_HasError()
T448C 001:845.798 JLINK_SetResetType(JLINKARM_CM3_RESET_TYPE_NORMAL)
T448C 001:845.809 - 0.016ms returns JLINKARM_CM3_RESET_TYPE_NORMAL
T448C 001:845.823 JLINK_Reset()
T448C 001:845.844   CPU_WriteMem(4 bytes @ 0xE000EDF0)
T448C 001:846.268   CPU_WriteMem(4 bytes @ 0xE000EDFC)
T448C 001:846.762   Reset: Halt core after reset via DEMCR.VC_CORERESET.
T448C 001:847.376   Reset: Reset device via AIRCR.SYSRESETREQ.
T448C 001:847.401   CPU_WriteMem(4 bytes @ 0xE000ED0C)
T448C 001:899.995   CPU_ReadMem(4 bytes @ 0xE000EDF0)
T448C 001:900.442   CPU_ReadMem(4 bytes @ 0xE000EDF0)
T448C 001:900.884   CPU_WriteMem(4 bytes @ 0xE000EDF0)
T448C 001:901.348   CPU_WriteMem(4 bytes @ 0xE000EDFC)
T448C 001:906.936   CPU_ReadMem(4 bytes @ 0xE000EDF0)
T448C 001:909.417   CPU_WriteMem(4 bytes @ 0xE0002000)
T448C 001:910.241   CPU_ReadMem(4 bytes @ 0xE000EDFC)
T448C 001:910.739   CPU_ReadMem(4 bytes @ 0xE0001000)
T448C 001:911.189 - 65.385ms
T448C 001:911.262 JLINK_HasError()
T448C 001:911.286 JLINK_ReadReg(R15 (PC))
T448C 001:911.312 - 0.036ms returns 0x08000240
T448C 001:911.336 JLINK_ReadReg(XPSR)
T448C 001:911.349 - 0.018ms returns 0x01000000
T448C 001:912.099 JLINK_ReadMemEx(0x08000240, 0x3C Bytes, Flags = 0x02000000)
T448C 001:912.150   CPU_ReadMem(64 bytes @ 0x08000240)
T448C 001:912.681    -- Updating C cache (64 bytes @ 0x08000240)
T448C 001:912.717    -- Read from C cache (60 bytes @ 0x08000240)
T448C 001:912.743   Data:  09 48 80 47 09 48 00 47 FE E7 FE E7 FE E7 FE E7 ...
T448C 001:912.765 - 0.676ms returns 60 (0x3C)
T448C 003:588.359 JLINK_HasError()
T448C 003:588.405 JLINK_ReadReg(R0)
T448C 003:588.671 - 0.278ms returns 0x00000000
T448C 003:588.697 JLINK_ReadReg(R1)
T448C 003:588.708 - 0.016ms returns 0x00000000
T448C 003:588.722 JLINK_ReadReg(R2)
T448C 003:588.732 - 0.015ms returns 0x00000000
T448C 003:588.745 JLINK_ReadReg(R3)
T448C 003:588.755 - 0.014ms returns 0x00000000
T448C 003:588.767 JLINK_ReadReg(R4)
T448C 003:588.777 - 0.014ms returns 0x00000000
T448C 003:588.790 JLINK_ReadReg(R5)
T448C 003:588.799 - 0.014ms returns 0x00000000
T448C 003:588.812 JLINK_ReadReg(R6)
T448C 003:588.822 - 0.014ms returns 0x00000000
T448C 003:588.834 JLINK_ReadReg(R7)
T448C 003:588.844 - 0.014ms returns 0x00000000
T448C 003:588.856 JLINK_ReadReg(R8)
T448C 003:588.874 - 0.022ms returns 0x00000000
T448C 003:588.886 JLINK_ReadReg(R9)
T448C 003:588.895 - 0.013ms returns 0x00000000
T448C 003:588.907 JLINK_ReadReg(R10)
T448C 003:588.917 - 0.013ms returns 0x00000000
T448C 003:588.929 JLINK_ReadReg(R11)
T448C 003:588.938 - 0.013ms returns 0x00000000
T448C 003:588.950 JLINK_ReadReg(R12)
T448C 003:588.959 - 0.013ms returns 0x00000000
T448C 003:588.971 JLINK_ReadReg(R13 (SP))
T448C 003:588.980 - 0.014ms returns 0x20000688
T448C 003:588.992 JLINK_ReadReg(R14)
T448C 003:589.002 - 0.013ms returns 0xFFFFFFFF
T448C 003:589.013 JLINK_ReadReg(R15 (PC))
T448C 003:589.023 - 0.013ms returns 0x08000240
T448C 003:589.036 JLINK_ReadReg(XPSR)
T448C 003:589.062 - 0.034ms returns 0x01000000
T448C 003:589.084 JLINK_ReadReg(MSP)
T448C 003:589.101 - 0.023ms returns 0x20000688
T448C 003:589.118 JLINK_ReadReg(PSP)
T448C 003:589.133 - 0.021ms returns 0x00000000
T448C 003:589.149 JLINK_ReadReg(CFBP)
T448C 003:589.163 - 0.021ms returns 0x00000000
T448C 003:589.180 JLINK_ReadReg(FPSCR)
T448C 003:591.765 - 2.600ms returns 0x00000000
T448C 003:591.791 JLINK_ReadReg(FPS0)
T448C 003:591.803 - 0.016ms returns 0x00000000
T448C 003:591.816 JLINK_ReadReg(FPS1)
T448C 003:591.825 - 0.014ms returns 0x00000000
T448C 003:591.838 JLINK_ReadReg(FPS2)
T448C 003:591.847 - 0.014ms returns 0x00000000
T448C 003:591.860 JLINK_ReadReg(FPS3)
T448C 003:591.869 - 0.014ms returns 0x00000000
T448C 003:591.881 JLINK_ReadReg(FPS4)
T448C 003:591.891 - 0.014ms returns 0x00000000
T448C 003:591.903 JLINK_ReadReg(FPS5)
T448C 003:591.913 - 0.014ms returns 0x00000000
T448C 003:591.925 JLINK_ReadReg(FPS6)
T448C 003:591.934 - 0.014ms returns 0x00000000
T448C 003:591.960 JLINK_ReadReg(FPS7)
T448C 003:591.970 - 0.014ms returns 0x00000000
T448C 003:591.982 JLINK_ReadReg(FPS8)
T448C 003:591.991 - 0.013ms returns 0x00000000
T448C 003:592.003 JLINK_ReadReg(FPS9)
T448C 003:592.013 - 0.014ms returns 0x00000000
T448C 003:592.025 JLINK_ReadReg(FPS10)
T448C 003:592.034 - 0.013ms returns 0x00000000
T448C 003:592.046 JLINK_ReadReg(FPS11)
T448C 003:592.055 - 0.013ms returns 0x00000000
T448C 003:592.067 JLINK_ReadReg(FPS12)
T448C 003:592.076 - 0.013ms returns 0x00000000
T448C 003:592.088 JLINK_ReadReg(FPS13)
T448C 003:592.098 - 0.013ms returns 0x00000000
T448C 003:592.110 JLINK_ReadReg(FPS14)
T448C 003:592.119 - 0.013ms returns 0x00000000
T448C 003:592.131 JLINK_ReadReg(FPS15)
T448C 003:592.140 - 0.013ms returns 0x00000000
T448C 003:592.152 JLINK_ReadReg(FPS16)
T448C 003:592.161 - 0.013ms returns 0x00000000
T448C 003:592.173 JLINK_ReadReg(FPS17)
T448C 003:592.196 - 0.027ms returns 0x00000000
T448C 003:592.208 JLINK_ReadReg(FPS18)
T448C 003:592.217 - 0.013ms returns 0x00000000
T448C 003:592.229 JLINK_ReadReg(FPS19)
T448C 003:592.238 - 0.017ms returns 0x00000000
T448C 003:592.256 JLINK_ReadReg(FPS20)
T448C 003:592.265 - 0.013ms returns 0x00000000
T448C 003:592.277 JLINK_ReadReg(FPS21)
T448C 003:592.286 - 0.013ms returns 0x00000000
T448C 003:592.298 JLINK_ReadReg(FPS22)
T448C 003:592.307 - 0.013ms returns 0x00000000
T448C 003:592.319 JLINK_ReadReg(FPS23)
T448C 003:592.328 - 0.013ms returns 0x00000000
T448C 003:592.340 JLINK_ReadReg(FPS24)
T448C 003:592.349 - 0.013ms returns 0x00000000
T448C 003:592.361 JLINK_ReadReg(FPS25)
T448C 003:592.371 - 0.013ms returns 0x00000000
T448C 003:592.382 JLINK_ReadReg(FPS26)
T448C 003:592.391 - 0.013ms returns 0x00000000
T448C 003:592.403 JLINK_ReadReg(FPS27)
T448C 003:592.412 - 0.013ms returns 0x00000000
T448C 003:592.424 JLINK_ReadReg(FPS28)
T448C 003:592.433 - 0.013ms returns 0x00000000
T448C 003:592.445 JLINK_ReadReg(FPS29)
T448C 003:592.454 - 0.013ms returns 0x00000000
T448C 003:592.466 JLINK_ReadReg(FPS30)
T448C 003:592.475 - 0.013ms returns 0x00000000
T448C 003:592.487 JLINK_ReadReg(FPS31)
T448C 003:592.496 - 0.013ms returns 0x00000000
T448C 003:620.663 JLINK_ReadMemEx(0x2000000C, 0x4 Bytes, Flags = 0x02000000)
T448C 003:620.700   CPU_ReadMem(64 bytes @ 0x20000000)
T448C 003:621.130    -- Updating C cache (64 bytes @ 0x20000000)
T448C 003:621.150    -- Read from C cache (4 bytes @ 0x2000000C)
T448C 003:621.166   Data:  00 00 00 00
T448C 003:621.180 - 0.522ms returns 4 (0x4)
T448C 003:631.878 JLINK_ReadMemEx(0x20000018, 0x4 Bytes, Flags = 0x02000000)
T448C 003:631.922    -- Read from C cache (4 bytes @ 0x20000018)
T448C 003:631.944   Data:  FF FF FF FF
T448C 003:631.961 - 0.087ms returns 4 (0x4)
T448C 003:641.527 JLINK_ReadMemEx(0x20000000, 0x6 Bytes, Flags = 0x02000000)
T448C 003:641.571    -- Read from C cache (6 bytes @ 0x20000000)
T448C 003:641.585   Data:  00 00 00 00 00 00
T448C 003:641.619 - 0.098ms returns 6 (0x6)
T23FC 003:669.059 JLINK_ReadMemEx(0x08000240, 0x2 Bytes, Flags = 0x02000000)
T23FC 003:669.108    -- Read from C cache (2 bytes @ 0x08000240)
T23FC 003:669.122   Data:  09 48
T23FC 003:669.136 - 0.081ms returns 2 (0x2)
T23FC 003:669.150 JLINK_HasError()
T23FC 003:669.164 JLINK_SetBPEx(Addr = 0x08001AE0, Type = 0xFFFFFFF2)
T23FC 003:669.180 - 0.020ms returns 0x00000001
T23FC 003:669.192 JLINK_HasError()
T23FC 003:669.204 JLINK_SetBPEx(Addr = 0x080018C0, Type = 0xFFFFFFF2)
T23FC 003:669.214 - 0.015ms returns 0x00000002
T23FC 003:669.227 JLINK_HasError()
T23FC 003:669.239 JLINK_SetBPEx(Addr = 0x08001684, Type = 0xFFFFFFF2)
T23FC 003:669.248 - 0.014ms returns 0x00000003
T23FC 003:669.260 JLINK_HasError()
T23FC 003:669.272 JLINK_HasError()
T23FC 003:669.290 JLINK_Go()
T23FC 003:669.349   CPU_WriteMem(4 bytes @ 0xE0002000)
T23FC 003:669.638   CPU_WriteMem(4 bytes @ 0xE0002000)
T23FC 003:669.903   CPU_WriteMem(4 bytes @ 0xE0002000)
T23FC 003:670.161   CPU_ReadMem(4 bytes @ 0xE0001000)
T23FC 003:670.408   CPU_WriteMem(4 bytes @ 0xE0002008)
T23FC 003:670.440   CPU_WriteMem(4 bytes @ 0xE000200C)
T23FC 003:670.478   CPU_WriteMem(4 bytes @ 0xE0002010)
T23FC 003:670.563   CPU_WriteMem(4 bytes @ 0xE0002014)
T23FC 003:670.589   CPU_WriteMem(4 bytes @ 0xE0002018)
T23FC 003:670.609   CPU_WriteMem(4 bytes @ 0xE000201C)
T23FC 003:671.380   CPU_WriteMem(4 bytes @ 0xE0001004)
T23FC 003:671.923 - 2.650ms
T23FC 003:772.236 JLINK_HasError()
T23FC 003:772.280 JLINK_IsHalted()
T23FC 003:774.112 - 1.843ms returns TRUE
T23FC 003:774.135 JLINK_HasError()
T23FC 003:774.148 JLINK_Halt()
T23FC 003:774.158 - 0.013ms returns 0x00
T23FC 003:774.170 JLINK_IsHalted()
T23FC 003:774.179 - 0.013ms returns TRUE
T23FC 003:774.198 JLINK_IsHalted()
T23FC 003:774.216 - 0.027ms returns TRUE
T23FC 003:774.236 JLINK_IsHalted()
T23FC 003:774.246 - 0.014ms returns TRUE
T23FC 003:774.259 JLINK_HasError()
T23FC 003:774.271 JLINK_ReadReg(R15 (PC))
T23FC 003:774.283 - 0.016ms returns 0x08001AE0
T23FC 003:774.296 JLINK_ReadReg(XPSR)
T23FC 003:774.305 - 0.014ms returns 0x61000000
T23FC 003:774.321 JLINK_HasError()
T23FC 003:774.332 JLINK_ClrBPEx(BPHandle = 0x00000001)
T23FC 003:774.346 - 0.020ms returns 0x00
T23FC 003:774.361 JLINK_HasError()
T23FC 003:774.373 JLINK_ClrBPEx(BPHandle = 0x00000002)
T23FC 003:774.382 - 0.014ms returns 0x00
T23FC 003:774.394 JLINK_HasError()
T23FC 003:774.406 JLINK_ClrBPEx(BPHandle = 0x00000003)
T23FC 003:774.415 - 0.013ms returns 0x00
T23FC 003:774.427 JLINK_HasError()
T23FC 003:774.439 JLINK_HasError()
T23FC 003:774.451 JLINK_ReadMemU32(0xE000ED30, 0x1 Items)
T23FC 003:774.466   CPU_ReadMem(4 bytes @ 0xE000ED30)
T23FC 003:774.685   Data:  02 00 00 00
T23FC 003:774.703 - 0.256ms returns 1 (0x1)
T23FC 003:774.718 JLINK_ReadMemU32(0xE0001028, 0x1 Items)
T23FC 003:774.732   CPU_ReadMem(4 bytes @ 0xE0001028)
T23FC 003:774.949   Data:  00 00 00 00
T23FC 003:774.974   Debug reg: DWT_FUNC[0]
T23FC 003:774.987 - 0.287ms returns 1 (0x1)
T23FC 003:775.016 JLINK_ReadMemU32(0xE0001038, 0x1 Items)
T23FC 003:775.029   CPU_ReadMem(4 bytes @ 0xE0001038)
T23FC 003:775.263   Data:  00 02 00 00
T23FC 003:775.294   Debug reg: DWT_FUNC[1]
T23FC 003:775.307 - 0.296ms returns 1 (0x1)
T23FC 003:775.322 JLINK_ReadMemU32(0xE0001048, 0x1 Items)
T23FC 003:775.335   CPU_ReadMem(4 bytes @ 0xE0001048)
T23FC 003:775.567   Data:  00 00 00 00
T23FC 003:775.584   Debug reg: DWT_FUNC[2]
T23FC 003:775.597 - 0.280ms returns 1 (0x1)
T23FC 003:775.612 JLINK_ReadMemU32(0xE0001058, 0x1 Items)
T23FC 003:775.639   CPU_ReadMem(4 bytes @ 0xE0001058)
T23FC 003:775.890   Data:  00 00 00 00
T23FC 003:775.921   Debug reg: DWT_FUNC[3]
T23FC 003:775.934 - 0.326ms returns 1 (0x1)
T23FC 003:775.972 JLINK_HasError()
T23FC 003:775.985 JLINK_ReadReg(R0)
T23FC 003:775.997 - 0.015ms returns 0x20000088
T23FC 003:776.009 JLINK_ReadReg(R1)
T23FC 003:776.018 - 0.014ms returns 0x20000288
T23FC 003:776.030 JLINK_ReadReg(R2)
T23FC 003:776.039 - 0.013ms returns 0x20000288
T23FC 003:776.051 JLINK_ReadReg(R3)
T23FC 003:776.061 - 0.013ms returns 0x20000288
T23FC 003:776.073 JLINK_ReadReg(R4)
T23FC 003:776.082 - 0.013ms returns 0x00000000
T23FC 003:776.094 JLINK_ReadReg(R5)
T23FC 003:776.103 - 0.013ms returns 0x20000024
T23FC 003:776.115 JLINK_ReadReg(R6)
T23FC 003:776.124 - 0.013ms returns 0x00000000
T23FC 003:776.136 JLINK_ReadReg(R7)
T23FC 003:776.145 - 0.013ms returns 0x00000000
T23FC 003:776.157 JLINK_ReadReg(R8)
T23FC 003:776.167 - 0.013ms returns 0x00000000
T23FC 003:776.179 JLINK_ReadReg(R9)
T23FC 003:776.190 - 0.016ms returns 0x00000000
T23FC 003:776.202 JLINK_ReadReg(R10)
T23FC 003:776.211 - 0.013ms returns 0x0800229C
T23FC 003:776.223 JLINK_ReadReg(R11)
T23FC 003:776.233 - 0.013ms returns 0x00000000
T23FC 003:776.245 JLINK_ReadReg(R12)
T23FC 003:776.254 - 0.013ms returns 0x20000064
T23FC 003:776.266 JLINK_ReadReg(R13 (SP))
T23FC 003:776.275 - 0.014ms returns 0x20000688
T23FC 003:776.287 JLINK_ReadReg(R14)
T23FC 003:776.297 - 0.013ms returns 0x08000231
T23FC 003:776.308 JLINK_ReadReg(R15 (PC))
T23FC 003:776.318 - 0.013ms returns 0x08001AE0
T23FC 003:776.330 JLINK_ReadReg(XPSR)
T23FC 003:776.339 - 0.013ms returns 0x61000000
T23FC 003:776.351 JLINK_ReadReg(MSP)
T23FC 003:776.360 - 0.013ms returns 0x20000688
T23FC 003:776.372 JLINK_ReadReg(PSP)
T23FC 003:776.381 - 0.013ms returns 0x00000000
T23FC 003:776.393 JLINK_ReadReg(CFBP)
T23FC 003:776.402 - 0.013ms returns 0x04000000
T23FC 003:776.414 JLINK_ReadReg(FPSCR)
T23FC 003:778.958 - 2.555ms returns 0x03000000
T23FC 003:778.980 JLINK_ReadReg(FPS0)
T23FC 003:779.005 - 0.030ms returns 0x00000000
T23FC 003:779.018 JLINK_ReadReg(FPS1)
T23FC 003:779.027 - 0.013ms returns 0x00000000
T23FC 003:779.039 JLINK_ReadReg(FPS2)
T23FC 003:779.048 - 0.013ms returns 0x00000000
T23FC 003:779.060 JLINK_ReadReg(FPS3)
T23FC 003:779.069 - 0.013ms returns 0x00000000
T23FC 003:779.081 JLINK_ReadReg(FPS4)
T23FC 003:779.091 - 0.013ms returns 0x00000000
T23FC 003:779.103 JLINK_ReadReg(FPS5)
T23FC 003:779.112 - 0.013ms returns 0x00000000
T23FC 003:779.124 JLINK_ReadReg(FPS6)
T23FC 003:779.133 - 0.013ms returns 0x00000000
T23FC 003:779.145 JLINK_ReadReg(FPS7)
T23FC 003:779.154 - 0.013ms returns 0x00000000
T23FC 003:779.169 JLINK_ReadReg(FPS8)
T23FC 003:779.183 - 0.018ms returns 0x00000000
T23FC 003:779.195 JLINK_ReadReg(FPS9)
T23FC 003:779.204 - 0.013ms returns 0x00000000
T23FC 003:779.216 JLINK_ReadReg(FPS10)
T23FC 003:779.225 - 0.013ms returns 0x00000000
T23FC 003:779.237 JLINK_ReadReg(FPS11)
T23FC 003:779.247 - 0.013ms returns 0x00000000
T23FC 003:779.259 JLINK_ReadReg(FPS12)
T23FC 003:779.268 - 0.013ms returns 0x00000000
T23FC 003:779.280 JLINK_ReadReg(FPS13)
T23FC 003:779.289 - 0.013ms returns 0x00000000
T23FC 003:779.301 JLINK_ReadReg(FPS14)
T23FC 003:779.310 - 0.013ms returns 0x00000000
T23FC 003:779.322 JLINK_ReadReg(FPS15)
T23FC 003:779.331 - 0.013ms returns 0x00000000
T23FC 003:779.343 JLINK_ReadReg(FPS16)
T23FC 003:779.352 - 0.013ms returns 0x00000000
T23FC 003:779.364 JLINK_ReadReg(FPS17)
T23FC 003:779.373 - 0.013ms returns 0x00000000
T23FC 003:779.385 JLINK_ReadReg(FPS18)
T23FC 003:779.394 - 0.013ms returns 0x00000000
T23FC 003:779.406 JLINK_ReadReg(FPS19)
T23FC 003:779.415 - 0.013ms returns 0x00000000
T23FC 003:779.427 JLINK_ReadReg(FPS20)
T23FC 003:779.436 - 0.013ms returns 0x00000000
T23FC 003:779.448 JLINK_ReadReg(FPS21)
T23FC 003:779.457 - 0.013ms returns 0x00000000
T23FC 003:779.469 JLINK_ReadReg(FPS22)
T23FC 003:779.478 - 0.013ms returns 0x00000000
T23FC 003:779.490 JLINK_ReadReg(FPS23)
T23FC 003:779.499 - 0.013ms returns 0x00000000
T23FC 003:779.511 JLINK_ReadReg(FPS24)
T23FC 003:779.520 - 0.013ms returns 0x00000000
T23FC 003:779.532 JLINK_ReadReg(FPS25)
T23FC 003:779.541 - 0.013ms returns 0x00000000
T23FC 003:779.553 JLINK_ReadReg(FPS26)
T23FC 003:779.562 - 0.013ms returns 0x00000000
T23FC 003:779.574 JLINK_ReadReg(FPS27)
T23FC 003:779.583 - 0.013ms returns 0x00000000
T23FC 003:779.595 JLINK_ReadReg(FPS28)
T23FC 003:779.604 - 0.013ms returns 0x00000000
T23FC 003:779.616 JLINK_ReadReg(FPS29)
T23FC 003:779.625 - 0.013ms returns 0x00000000
T23FC 003:779.637 JLINK_ReadReg(FPS30)
T23FC 003:779.647 - 0.013ms returns 0x00000000
T23FC 003:779.659 JLINK_ReadReg(FPS31)
T23FC 003:779.668 - 0.013ms returns 0x00000000
T448C 003:780.557 JLINK_HasError()
T448C 003:780.578 JLINK_ReadMemU32(0xE0001004, 0x1 Items)
T448C 003:780.597   CPU_ReadMem(4 bytes @ 0xE0001004)
T448C 003:780.816   Data:  28 04 00 00
T448C 003:780.834   Debug reg: DWT_CYCCNT
T448C 003:780.847 - 0.273ms returns 1 (0x1)
T448C 003:782.110 JLINK_ReadMemEx(0x2000000C, 0x4 Bytes, Flags = 0x02000000)
T448C 003:782.145   CPU_ReadMem(64 bytes @ 0x20000000)
T448C 003:782.600    -- Updating C cache (64 bytes @ 0x20000000)
T448C 003:782.620    -- Read from C cache (4 bytes @ 0x2000000C)
T448C 003:782.635   Data:  00 00 00 00
T448C 003:782.662 - 0.556ms returns 4 (0x4)
T448C 003:782.696 JLINK_ReadMemEx(0x20000018, 0x4 Bytes, Flags = 0x02000000)
T448C 003:782.709    -- Read from C cache (4 bytes @ 0x20000018)
T448C 003:782.723   Data:  FF FF FF FF
T448C 003:782.736 - 0.044ms returns 4 (0x4)
T448C 003:783.061 JLINK_ReadMemEx(0x20000000, 0x6 Bytes, Flags = 0x02000000)
T448C 003:783.077    -- Read from C cache (6 bytes @ 0x20000000)
T448C 003:783.091   Data:  00 00 00 00 00 00
T448C 003:783.104 - 0.047ms returns 6 (0x6)
T448C 003:786.054 JLINK_ReadMemEx(0x08001AE0, 0x3C Bytes, Flags = 0x02000000)
T448C 003:786.089   CPU_ReadMem(128 bytes @ 0x08001AC0)
T448C 003:786.727    -- Updating C cache (128 bytes @ 0x08001AC0)
T448C 003:786.748    -- Read from C cache (60 bytes @ 0x08001AE0)
T448C 003:786.777   Data:  88 B0 02 A8 FF F7 50 FD 32 21 02 A8 FF F7 42 FD ...
T448C 003:786.790 - 0.741ms returns 60 (0x3C)
T23FC 004:432.083 JLINK_ReadMemEx(0x08001AE0, 0x2 Bytes, Flags = 0x02000000)
T23FC 004:432.186    -- Read from C cache (2 bytes @ 0x08001AE0)
T23FC 004:432.266   Data:  88 B0
T23FC 004:432.330 - 0.270ms returns 2 (0x2)
T23FC 004:432.393 JLINK_HasError()
T23FC 004:432.457 JLINK_SetBPEx(Addr = 0x080018C0, Type = 0xFFFFFFF2)
T23FC 004:432.522 - 0.086ms returns 0x00000004
T23FC 004:432.579 JLINK_HasError()
T23FC 004:432.636 JLINK_SetBPEx(Addr = 0x08001684, Type = 0xFFFFFFF2)
T23FC 004:432.690 - 0.089ms returns 0x00000005
T23FC 004:432.774 JLINK_HasError()
T23FC 004:432.837 JLINK_HasError()
T23FC 004:432.894 JLINK_Go()
T23FC 004:433.572   CPU_WriteMem(4 bytes @ 0xE0002000)
T23FC 004:434.082   CPU_WriteMem(4 bytes @ 0xE0002000)
T23FC 004:434.605   CPU_ReadMem(4 bytes @ 0xE0001000)
T23FC 004:435.002   CPU_WriteMem(4 bytes @ 0xE0002008)
T23FC 004:435.070   CPU_WriteMem(4 bytes @ 0xE000200C)
T23FC 004:435.118   CPU_WriteMem(4 bytes @ 0xE0002010)
T23FC 004:436.228 - 3.367ms
T23FC 004:537.312 JLINK_HasError()
T23FC 004:537.361 JLINK_IsHalted()
T23FC 004:537.764 - 0.425ms returns FALSE
T23FC 004:638.267 JLINK_HasError()
T23FC 004:638.385 JLINK_IsHalted()
T23FC 004:638.919 - 0.598ms returns FALSE
T23FC 004:739.642 JLINK_HasError()
T23FC 004:739.672 JLINK_IsHalted()
T23FC 004:739.947 - 0.285ms returns FALSE
T23FC 004:840.506 JLINK_HasError()
T23FC 004:840.548 JLINK_IsHalted()
T23FC 004:840.925 - 0.397ms returns FALSE
T23FC 004:941.468 JLINK_HasError()
T23FC 004:941.581 JLINK_HasError()
T23FC 004:941.644 JLINK_ReadMemU32(0xE0001004, 0x1 Items)
T23FC 004:941.730   CPU_ReadMem(4 bytes @ 0xE0001004)
T23FC 004:942.277   Data:  E5 C9 7B 00
T23FC 004:942.452   Debug reg: DWT_CYCCNT
T23FC 004:942.573 - 0.957ms returns 1 (0x1)
T448C 004:944.079 JLINK_ReadMemEx(0x2000000C, 0x4 Bytes, Flags = 0x02000000)
T448C 004:944.192   CPU_ReadMem(4 bytes @ 0x2000000C)
T448C 004:944.950   Data:  00 00 00 00
T448C 004:945.056 - 1.009ms returns 4 (0x4)
T448C 004:945.227 JLINK_ReadMemEx(0x20000018, 0x4 Bytes, Flags = 0x02000000)
T448C 004:945.309   CPU_ReadMem(4 bytes @ 0x20000018)
T448C 004:946.038   Data:  FF FF FF FF
T448C 004:946.153 - 0.958ms returns 4 (0x4)
T448C 004:946.304 JLINK_ReadMemEx(0x2000000C, 0x4 Bytes, Flags = 0x02000000)
T448C 004:946.421   CPU_ReadMem(4 bytes @ 0x2000000C)
T448C 004:947.094   Data:  00 00 00 00
T448C 004:947.189 - 0.909ms returns 4 (0x4)
T448C 004:947.352 JLINK_ReadMemEx(0x20000000, 0x6 Bytes, Flags = 0x02000000)
T448C 004:947.468   CPU_ReadMem(6 bytes @ 0x20000000)
T448C 004:948.263   Data:  00 00 00 00 00 00
T448C 004:948.356 - 1.027ms returns 6 (0x6)
T23FC 004:948.639 JLINK_IsHalted()
T23FC 004:949.226 - 0.635ms returns FALSE
T23FC 005:049.486 JLINK_HasError()
T23FC 005:049.562 JLINK_IsHalted()
T23FC 005:049.963 - 0.426ms returns FALSE
T23FC 005:150.220 JLINK_HasError()
T23FC 005:150.263 JLINK_IsHalted()
T23FC 005:150.703 - 0.457ms returns FALSE
T23FC 005:251.003 JLINK_HasError()
T23FC 005:251.039 JLINK_IsHalted()
T23FC 005:251.471 - 0.450ms returns FALSE
T23FC 005:351.881 JLINK_HasError()
T23FC 005:351.925 JLINK_IsHalted()
T23FC 005:352.211 - 0.309ms returns FALSE
T23FC 005:453.121 JLINK_HasError()
T23FC 005:453.172 JLINK_HasError()
T23FC 005:453.197 JLINK_ReadMemU32(0xE0001004, 0x1 Items)
T23FC 005:453.230   Data:  E5 C9 7B 00
T23FC 005:453.256   Debug reg: DWT_CYCCNT
T23FC 005:453.277 - 0.087ms returns 1 (0x1)
T448C 005:453.521 JLINK_ReadMemEx(0x2000000C, 0x4 Bytes, Flags = 0x02000000)
T448C 005:453.572   CPU_ReadMem(4 bytes @ 0x2000000C)
T448C 005:453.981   Data:  00 00 00 00
T448C 005:454.022 - 0.509ms returns 4 (0x4)
T448C 005:454.089 JLINK_ReadMemEx(0x20000018, 0x4 Bytes, Flags = 0x02000000)
T448C 005:454.122   CPU_ReadMem(4 bytes @ 0x20000018)
T448C 005:454.519   Data:  FF FF FF FF
T448C 005:454.551 - 0.470ms returns 4 (0x4)
T448C 005:454.594 JLINK_ReadMemEx(0x2000000C, 0x4 Bytes, Flags = 0x02000000)
T448C 005:454.620   CPU_ReadMem(4 bytes @ 0x2000000C)
T448C 005:455.005   Data:  00 00 00 00
T448C 005:455.038 - 0.452ms returns 4 (0x4)
T448C 005:455.097 JLINK_ReadMemEx(0x20000000, 0x6 Bytes, Flags = 0x02000000)
T448C 005:455.124   CPU_ReadMem(6 bytes @ 0x20000000)
T448C 005:455.628   Data:  00 00 00 00 00 00
T448C 005:455.659 - 0.569ms returns 6 (0x6)
T23FC 005:455.777 JLINK_IsHalted()
T23FC 005:456.109 - 0.351ms returns FALSE
T23FC 005:557.107 JLINK_HasError()
T23FC 005:557.166 JLINK_IsHalted()
T23FC 005:557.523 - 0.375ms returns FALSE
T23FC 005:659.693 JLINK_HasError()
T23FC 005:659.991 JLINK_IsHalted()
T23FC 005:661.024 - 1.107ms returns FALSE
T23FC 005:762.137 JLINK_HasError()
T23FC 005:762.190 JLINK_IsHalted()
T23FC 005:762.595 - 0.432ms returns FALSE
T23FC 005:862.882 JLINK_HasError()
T23FC 005:862.918 JLINK_IsHalted()
T23FC 005:863.343 - 0.442ms returns FALSE
T23FC 005:964.326 JLINK_HasError()
T23FC 005:964.359 JLINK_IsHalted()
T23FC 005:964.690 - 0.346ms returns FALSE
T23FC 006:066.059 JLINK_HasError()
T23FC 006:066.223 JLINK_HasError()
T23FC 006:066.297 JLINK_ReadMemU32(0xE0001004, 0x1 Items)
T23FC 006:066.392   Data:  E5 C9 7B 00
T23FC 006:066.483   Debug reg: DWT_CYCCNT
T23FC 006:066.554 - 0.281ms returns 1 (0x1)
T448C 006:067.114 JLINK_ReadMemEx(0x2000000C, 0x4 Bytes, Flags = 0x02000000)
T448C 006:067.244   CPU_ReadMem(4 bytes @ 0x2000000C)
T448C 006:067.817   Data:  00 00 00 00
T448C 006:067.912 - 0.822ms returns 4 (0x4)
T448C 006:068.055 JLINK_ReadMemEx(0x20000018, 0x4 Bytes, Flags = 0x02000000)
T448C 006:068.135   CPU_ReadMem(4 bytes @ 0x20000018)
T448C 006:068.861   Data:  FF FF FF FF
T448C 006:068.955 - 0.924ms returns 4 (0x4)
T448C 006:069.078 JLINK_ReadMemEx(0x2000000C, 0x4 Bytes, Flags = 0x02000000)
T448C 006:069.157   CPU_ReadMem(4 bytes @ 0x2000000C)
T448C 006:069.941   Data:  00 00 00 00
T448C 006:070.036 - 0.981ms returns 4 (0x4)
T448C 006:070.199 JLINK_ReadMemEx(0x20000000, 0x6 Bytes, Flags = 0x02000000)
T448C 006:070.279   CPU_ReadMem(6 bytes @ 0x20000000)
T448C 006:070.958   Data:  00 00 00 00 00 00
T448C 006:071.051 - 0.875ms returns 6 (0x6)
T23FC 006:071.318 JLINK_IsHalted()
T23FC 006:072.103 - 0.838ms returns FALSE
T23FC 006:172.876 JLINK_HasError()
T23FC 006:172.938 JLINK_IsHalted()
T23FC 006:173.420 - 0.504ms returns FALSE
T23FC 006:273.947 JLINK_HasError()
T23FC 006:273.986 JLINK_IsHalted()
T23FC 006:274.297 - 0.325ms returns FALSE
T23FC 006:374.688 JLINK_HasError()
T23FC 006:374.768 JLINK_IsHalted()
T23FC 006:375.292 - 0.559ms returns FALSE
T23FC 006:475.808 JLINK_HasError()
T23FC 006:475.908 JLINK_IsHalted()
T23FC 006:476.524 - 0.659ms returns FALSE
T23FC 006:577.422 JLINK_HasError()
T23FC 006:577.536 JLINK_HasError()
T23FC 006:577.597 JLINK_ReadMemU32(0xE0001004, 0x1 Items)
T23FC 006:577.676   Data:  E5 C9 7B 00
T23FC 006:577.751   Debug reg: DWT_CYCCNT
T23FC 006:577.813 - 0.236ms returns 1 (0x1)
T448C 006:578.161 JLINK_ReadMemEx(0x2000000C, 0x4 Bytes, Flags = 0x02000000)
T448C 006:578.267   CPU_ReadMem(4 bytes @ 0x2000000C)
T448C 006:578.952   Data:  00 00 00 00
T448C 006:579.064 - 0.924ms returns 4 (0x4)
T448C 006:579.198 JLINK_ReadMemEx(0x20000018, 0x4 Bytes, Flags = 0x02000000)
T448C 006:579.267   CPU_ReadMem(4 bytes @ 0x20000018)
T448C 006:579.924   Data:  FF FF FF FF
T448C 006:580.005 - 0.827ms returns 4 (0x4)
T448C 006:580.109 JLINK_ReadMemEx(0x2000000C, 0x4 Bytes, Flags = 0x02000000)
T448C 006:580.176   CPU_ReadMem(4 bytes @ 0x2000000C)
T448C 006:580.836   Data:  00 00 00 00
T448C 006:580.916 - 0.827ms returns 4 (0x4)
T448C 006:581.056 JLINK_ReadMemEx(0x20000000, 0x6 Bytes, Flags = 0x02000000)
T448C 006:581.126   CPU_ReadMem(6 bytes @ 0x20000000)
T448C 006:581.836   Data:  00 00 00 00 00 00
T448C 006:581.916 - 0.880ms returns 6 (0x6)
T23FC 006:582.208 JLINK_IsHalted()
T23FC 006:583.012 - 0.854ms returns FALSE
T23FC 006:683.693 JLINK_HasError()
T23FC 006:683.794 JLINK_IsHalted()
T23FC 006:684.301 - 0.550ms returns FALSE
T23FC 006:784.721 JLINK_HasError()
T23FC 006:784.805 JLINK_IsHalted()
T23FC 006:785.348 - 0.585ms returns FALSE
T23FC 006:885.806 JLINK_HasError()
T23FC 006:885.894 JLINK_IsHalted()
T23FC 006:886.442 - 0.591ms returns FALSE
T23FC 006:987.272 JLINK_HasError()
T23FC 006:987.377 JLINK_IsHalted()
T23FC 006:989.644 - 2.312ms returns TRUE
T23FC 006:989.727 JLINK_HasError()
T23FC 006:989.770 JLINK_Halt()
T23FC 006:989.801 - 0.046ms returns 0x00
T23FC 006:989.842 JLINK_IsHalted()
T23FC 006:989.872 - 0.045ms returns TRUE
T23FC 006:989.912 JLINK_IsHalted()
T23FC 006:989.942 - 0.044ms returns TRUE
T23FC 006:989.992 JLINK_IsHalted()
T23FC 006:990.050 - 0.093ms returns TRUE
T23FC 006:990.118 JLINK_HasError()
T23FC 006:990.177 JLINK_ReadReg(R15 (PC))
T23FC 006:990.217 - 0.056ms returns 0x08001684
T23FC 006:990.258 JLINK_ReadReg(XPSR)
T23FC 006:990.290 - 0.046ms returns 0x61000057
T23FC 006:990.339 JLINK_HasError()
T23FC 006:990.379 JLINK_ClrBPEx(BPHandle = 0x00000004)
T23FC 006:990.412 - 0.048ms returns 0x00
T23FC 006:990.453 JLINK_HasError()
T23FC 006:990.491 JLINK_ClrBPEx(BPHandle = 0x00000005)
T23FC 006:990.523 - 0.046ms returns 0x00
T23FC 006:990.562 JLINK_HasError()
T23FC 006:990.601 JLINK_HasError()
T23FC 006:990.640 JLINK_ReadMemU32(0xE000ED30, 0x1 Items)
T23FC 006:990.685   CPU_ReadMem(4 bytes @ 0xE000ED30)
T23FC 006:991.187   Data:  02 00 00 00
T23FC 006:991.250 - 0.626ms returns 1 (0x1)
T23FC 006:991.302 JLINK_ReadMemU32(0xE0001028, 0x1 Items)
T23FC 006:991.352   CPU_ReadMem(4 bytes @ 0xE0001028)
T23FC 006:991.850   Data:  00 00 00 00
T23FC 006:991.913   Debug reg: DWT_FUNC[0]
T23FC 006:991.957 - 0.671ms returns 1 (0x1)
T23FC 006:992.008 JLINK_ReadMemU32(0xE0001038, 0x1 Items)
T23FC 006:992.058   CPU_ReadMem(4 bytes @ 0xE0001038)
T23FC 006:992.504   Data:  00 02 00 00
T23FC 006:992.569   Debug reg: DWT_FUNC[1]
T23FC 006:992.613 - 0.620ms returns 1 (0x1)
T23FC 006:992.663 JLINK_ReadMemU32(0xE0001048, 0x1 Items)
T23FC 006:992.713   CPU_ReadMem(4 bytes @ 0xE0001048)
T23FC 006:993.295   Data:  00 00 00 00
T23FC 006:993.402   Debug reg: DWT_FUNC[2]
T23FC 006:993.446 - 0.798ms returns 1 (0x1)
T23FC 006:993.496 JLINK_ReadMemU32(0xE0001058, 0x1 Items)
T23FC 006:993.545   CPU_ReadMem(4 bytes @ 0xE0001058)
T23FC 006:994.115   Data:  00 00 00 00
T23FC 006:994.178   Debug reg: DWT_FUNC[3]
T23FC 006:994.223 - 0.742ms returns 1 (0x1)
T23FC 006:994.345 JLINK_HasError()
T23FC 006:994.398 JLINK_ReadReg(R0)
T23FC 006:994.453 - 0.078ms returns 0x20000020
T23FC 006:994.512 JLINK_ReadReg(R1)
T23FC 006:994.558 - 0.066ms returns 0x00000001
T23FC 006:994.612 JLINK_ReadReg(R2)
T23FC 006:994.678 - 0.088ms returns 0x00000001
T23FC 006:994.739 JLINK_ReadReg(R3)
T23FC 006:994.786 - 0.070ms returns 0x00000040
T23FC 006:994.844 JLINK_ReadReg(R4)
T23FC 006:994.891 - 0.089ms returns 0x00000000
T23FC 006:994.981 JLINK_ReadReg(R5)
T23FC 006:995.026 - 0.060ms returns 0x20000024
T23FC 006:995.076 JLINK_ReadReg(R6)
T23FC 006:995.107 - 0.046ms returns 0x00000000
T23FC 006:995.340 JLINK_ReadReg(R7)
T23FC 006:995.402 - 0.078ms returns 0x00000000
T23FC 006:995.447 JLINK_ReadReg(R8)
T23FC 006:995.481 - 0.049ms returns 0x00000000
T23FC 006:995.523 JLINK_ReadReg(R9)
T23FC 006:995.555 - 0.048ms returns 0x00000000
T23FC 006:995.596 JLINK_ReadReg(R10)
T23FC 006:995.627 - 0.046ms returns 0x0800229C
T23FC 006:995.668 JLINK_ReadReg(R11)
T23FC 006:995.700 - 0.047ms returns 0x00000000
T23FC 006:995.741 JLINK_ReadReg(R12)
T23FC 006:995.773 - 0.047ms returns 0xFFFFFFFF
T23FC 006:995.813 JLINK_ReadReg(R13 (SP))
T23FC 006:995.846 - 0.047ms returns 0x20000600
T23FC 006:995.886 JLINK_ReadReg(R14)
T23FC 006:995.926 - 0.055ms returns 0xFFFFFFE9
T23FC 006:995.967 JLINK_ReadReg(R15 (PC))
T23FC 006:995.998 - 0.047ms returns 0x08001684
T23FC 006:996.039 JLINK_ReadReg(XPSR)
T23FC 006:996.070 - 0.046ms returns 0x61000057
T23FC 006:996.111 JLINK_ReadReg(MSP)
T23FC 006:996.142 - 0.046ms returns 0x20000600
T23FC 006:996.182 JLINK_ReadReg(PSP)
T23FC 006:996.214 - 0.046ms returns 0x00000000
T23FC 006:996.254 JLINK_ReadReg(CFBP)
T23FC 006:996.285 - 0.046ms returns 0x00000000
T23FC 006:996.326 JLINK_ReadReg(FPSCR)
T23FC 006:999.556 - 3.273ms returns 0x03000000
T23FC 006:999.638 JLINK_ReadReg(FPS0)
T23FC 006:999.686 - 0.065ms returns 0x00000000
T23FC 006:999.729 JLINK_ReadReg(FPS1)
T23FC 006:999.762 - 0.048ms returns 0x00000000
T23FC 006:999.803 JLINK_ReadReg(FPS2)
T23FC 006:999.835 - 0.047ms returns 0x00000000
T23FC 006:999.876 JLINK_ReadReg(FPS3)
T23FC 006:999.921 - 0.061ms returns 0x00000000
T23FC 006:999.962 JLINK_ReadReg(FPS4)
T23FC 006:999.993 - 0.046ms returns 0x00000000
T23FC 007:000.033 JLINK_ReadReg(FPS5)
T23FC 007:000.064 - 0.045ms returns 0x00000000
T23FC 007:000.104 JLINK_ReadReg(FPS6)
T23FC 007:000.150 - 0.062ms returns 0x00000000
T23FC 007:000.190 JLINK_ReadReg(FPS7)
T23FC 007:000.221 - 0.045ms returns 0x00000000
T23FC 007:000.260 JLINK_ReadReg(FPS8)
T23FC 007:000.291 - 0.045ms returns 0x00000000
T23FC 007:000.330 JLINK_ReadReg(FPS9)
T23FC 007:000.360 - 0.045ms returns 0x00000000
T23FC 007:000.400 JLINK_ReadReg(FPS10)
T23FC 007:000.430 - 0.045ms returns 0x00000000
T23FC 007:000.469 JLINK_ReadReg(FPS11)
T23FC 007:000.499 - 0.045ms returns 0x00000000
T23FC 007:000.539 JLINK_ReadReg(FPS12)
T23FC 007:000.569 - 0.044ms returns 0x00000000
T23FC 007:000.608 JLINK_ReadReg(FPS13)
T23FC 007:000.638 - 0.045ms returns 0x00000000
T23FC 007:000.677 JLINK_ReadReg(FPS14)
T23FC 007:000.707 - 0.045ms returns 0x00000000
T23FC 007:000.746 JLINK_ReadReg(FPS15)
T23FC 007:000.777 - 0.044ms returns 0x00000000
T23FC 007:000.816 JLINK_ReadReg(FPS16)
T23FC 007:000.846 - 0.045ms returns 0x00000000
T23FC 007:000.885 JLINK_ReadReg(FPS17)
T23FC 007:001.057 - 0.193ms returns 0x00000000
T23FC 007:001.110 JLINK_ReadReg(FPS18)
T23FC 007:001.143 - 0.048ms returns 0x00000000
T23FC 007:001.184 JLINK_ReadReg(FPS19)
T23FC 007:001.214 - 0.045ms returns 0x00000000
T23FC 007:001.254 JLINK_ReadReg(FPS20)
T23FC 007:001.284 - 0.045ms returns 0x00000000
T23FC 007:001.323 JLINK_ReadReg(FPS21)
T23FC 007:001.353 - 0.045ms returns 0x00000000
T23FC 007:001.392 JLINK_ReadReg(FPS22)
T23FC 007:001.423 - 0.044ms returns 0x00000000
T23FC 007:001.462 JLINK_ReadReg(FPS23)
T23FC 007:001.492 - 0.180ms returns 0x00000000
T23FC 007:001.701 JLINK_ReadReg(FPS24)
T23FC 007:001.746 - 0.062ms returns 0x00000000
T23FC 007:001.788 JLINK_ReadReg(FPS25)
T23FC 007:001.821 - 0.047ms returns 0x00000000
T23FC 007:001.860 JLINK_ReadReg(FPS26)
T23FC 007:001.891 - 0.055ms returns 0x00000000
T23FC 007:001.941 JLINK_ReadReg(FPS27)
T23FC 007:001.971 - 0.045ms returns 0x00000000
T23FC 007:002.011 JLINK_ReadReg(FPS28)
T23FC 007:002.041 - 0.045ms returns 0x00000000
T23FC 007:002.080 JLINK_ReadReg(FPS29)
T23FC 007:002.111 - 0.045ms returns 0x00000000
T23FC 007:002.150 JLINK_ReadReg(FPS30)
T23FC 007:002.180 - 0.045ms returns 0x00000000
T23FC 007:002.219 JLINK_ReadReg(FPS31)
T23FC 007:002.250 - 0.045ms returns 0x00000000
T448C 007:002.641 JLINK_ReadMemEx(0x20000618, 0x4 Bytes, Flags = 0x02000000)
T448C 007:002.716   CPU_ReadMem(64 bytes @ 0x20000600)
T448C 007:003.566    -- Updating C cache (64 bytes @ 0x20000600)
T448C 007:003.633    -- Read from C cache (4 bytes @ 0x20000618)
T448C 007:003.679   Data:  2A 1B 00 08
T448C 007:003.723 - 1.096ms returns 4 (0x4)
T448C 007:003.776 JLINK_ReadMemEx(0x2000061C, 0x4 Bytes, Flags = 0x02000000)
T448C 007:003.818    -- Read from C cache (4 bytes @ 0x2000061C)
T448C 007:003.863   Data:  00 00 00 61
T448C 007:003.905 - 0.144ms returns 4 (0x4)
T448C 007:003.946 JLINK_ReadMemEx(0x20000614, 0x4 Bytes, Flags = 0x02000000)
T448C 007:003.981    -- Read from C cache (4 bytes @ 0x20000614)
T448C 007:004.024   Data:  11 1B 00 08
T448C 007:004.068 - 0.142ms returns 4 (0x4)
T448C 007:004.138 JLINK_ReadMemEx(0xE000ED28, 0x4 Bytes, Flags = 0x02000000)
T448C 007:004.208   CPU_ReadMem(4 bytes @ 0xE000ED28)
T448C 007:004.665   Data:  00 00 00 00
T448C 007:004.745 - 0.629ms returns 4 (0x4)
T448C 007:005.281 JLINK_ReadMemEx(0x00000000, 0x1 Bytes, Flags = 0x02000000)
T448C 007:005.336   CPU_ReadMem(4 bytes @ 0x40023844)
T448C 007:005.940   CPU_ReadMem(4 bytes @ 0x40013800)
T448C 007:006.458   CPU_ReadMem(64 bytes @ 0x08000000)
T448C 007:007.135    -- Updating C cache (64 bytes @ 0x08000000)
T448C 007:007.182    -- Read from C cache (1 bytes @ 0x08000000)
T448C 007:007.215   Data:  88
T448C 007:007.247 - 1.976ms returns 1 (0x1)
T448C 007:009.223 JLINK_HasError()
T448C 007:009.277 JLINK_ReadMemU32(0xE0001004, 0x1 Items)
T448C 007:009.318   Data:  E5 C9 7B 00
T448C 007:009.351   Debug reg: DWT_CYCCNT
T448C 007:009.382 - 0.114ms returns 1 (0x1)
T448C 007:009.974 JLINK_ReadMemEx(0x2000000C, 0x4 Bytes, Flags = 0x02000000)
T448C 007:010.019   CPU_ReadMem(64 bytes @ 0x20000000)
T448C 007:010.618    -- Updating C cache (64 bytes @ 0x20000000)
T448C 007:010.668    -- Read from C cache (4 bytes @ 0x2000000C)
T448C 007:010.703   Data:  00 00 00 00
T448C 007:010.742 - 0.779ms returns 4 (0x4)
T448C 007:010.816 JLINK_ReadMemEx(0x20000018, 0x4 Bytes, Flags = 0x02000000)
T448C 007:010.852    -- Read from C cache (4 bytes @ 0x20000018)
T448C 007:010.890   Data:  FF FF FF FF
T448C 007:010.913 - 0.105ms returns 4 (0x4)
T448C 007:010.969 JLINK_ReadMemEx(0x20000000, 0x6 Bytes, Flags = 0x02000000)
T448C 007:010.992    -- Read from C cache (6 bytes @ 0x20000000)
T448C 007:011.016   Data:  00 00 00 00 00 00
T448C 007:011.039 - 0.080ms returns 6 (0x6)
T448C 007:015.185 JLINK_ReadMemEx(0x08001684, 0x3C Bytes, Flags = 0x02000000)
T448C 007:015.233   CPU_ReadMem(64 bytes @ 0x08001680)
T448C 007:015.863    -- Updating C cache (64 bytes @ 0x08001680)
T448C 007:015.917    -- Read from C cache (60 bytes @ 0x08001684)
T448C 007:015.950   Data:  0A 48 00 68 00 F0 20 00 78 B1 08 49 09 1D 09 68 ...
T448C 007:015.987 - 0.813ms returns 60 (0x3C)
T23FC 010:475.550 JLINK_ReadMemEx(0x08001684, 0x2 Bytes, Flags = 0x02000000)
T23FC 010:475.647    -- Read from C cache (2 bytes @ 0x08001684)
T23FC 010:475.709   Data:  0A 48
T23FC 010:475.768 - 0.238ms returns 2 (0x2)
T23FC 010:475.830 JLINK_HasError()
T23FC 010:475.908 JLINK_Step()
T23FC 010:476.433    -- Read from C cache (2 bytes @ 0x08001684)
T23FC 010:476.605   CPU_ReadMem(4 bytes @ 0xE000ED18)
T23FC 010:477.304   CPU_WriteMem(4 bytes @ 0xE000ED18)
T23FC 010:477.849   CPU_ReadMem(4 bytes @ 0xE000ED18)
T23FC 010:478.348   CPU_WriteMem(4 bytes @ 0xE000ED18)
T23FC 010:478.898    -- Read from C cache (4 bytes @ 0x080016B0)
T23FC 010:479.001   -- Simulated
T23FC 010:479.058 - 3.169ms returns 0
T23FC 010:479.137 JLINK_HasError()
T23FC 010:479.193 JLINK_ReadReg(R15 (PC))
T23FC 010:479.246 - 0.072ms returns 0x08001686
T23FC 010:479.306 JLINK_ReadReg(XPSR)
T23FC 010:479.348 - 0.061ms returns 0x61000057
T23FC 010:479.430 JLINK_HasError()
T23FC 010:479.492 JLINK_Step()
T23FC 010:479.539    -- Read from C cache (2 bytes @ 0x08001686)
T23FC 010:479.599   -- Not simulated
T23FC 010:479.690   CPU_WriteMem(4 bytes @ 0xE0002008)
T23FC 010:479.750   CPU_WriteMem(4 bytes @ 0xE000200C)
T23FC 010:480.401   CPU_WriteMem(4 bytes @ 0xE0001004)
T23FC 010:483.864 - 4.401ms returns 0
T23FC 010:483.931 JLINK_HasError()
T23FC 010:483.974 JLINK_ReadReg(R15 (PC))
T23FC 010:484.006 - 0.045ms returns 0x08001688
T23FC 010:484.046 JLINK_ReadReg(XPSR)
T23FC 010:484.073 - 0.039ms returns 0x61000057
T23FC 010:484.127 JLINK_ReadMemEx(0x08001688, 0x3C Bytes, Flags = 0x02000000)
T23FC 010:484.168   CPU_ReadMem(128 bytes @ 0x08001680)
T23FC 010:484.946    -- Updating C cache (128 bytes @ 0x08001680)
T23FC 010:485.000    -- Read from C cache (60 bytes @ 0x08001688)
T23FC 010:485.041   Data:  00 F0 20 00 78 B1 08 49 09 1D 09 68 C8 B2 74 28 ...
T23FC 010:485.077 - 0.961ms returns 60 (0x3C)
T23FC 010:485.127 JLINK_ReadMemEx(0x08001688, 0x2 Bytes, Flags = 0x02000000)
T23FC 010:485.158    -- Read from C cache (2 bytes @ 0x08001688)
T23FC 010:485.194   Data:  00 F0
T23FC 010:485.231 - 0.143ms returns 2 (0x2)
T23FC 010:485.299 JLINK_ReadMemEx(0x0800168A, 0x2 Bytes, Flags = 0x02000000)
T23FC 010:485.327    -- Read from C cache (2 bytes @ 0x0800168A)
T23FC 010:485.363   Data:  20 00
T23FC 010:485.398 - 0.110ms returns 2 (0x2)
T23FC 010:485.438 JLINK_HasError()
T23FC 010:485.585 JLINK_Step()
T23FC 010:485.645    -- Read from C cache (2 bytes @ 0x08001688)
T23FC 010:485.701   CPU_ReadMem(4 bytes @ 0xE0001004)
T23FC 010:486.102    -- Read from C cache (2 bytes @ 0x0800168A)
T23FC 010:486.188   -- Simulated
T23FC 010:486.260 - 0.692ms returns 0
T23FC 010:486.316 JLINK_HasError()
T23FC 010:486.371 JLINK_ReadReg(R15 (PC))
T23FC 010:486.414 - 0.055ms returns 0x0800168C
T23FC 010:486.464 JLINK_ReadReg(XPSR)
T23FC 010:486.484 - 0.028ms returns 0x61000057
T23FC 010:486.518 JLINK_ReadMemEx(0x0800168A, 0x2 Bytes, Flags = 0x02000000)
T23FC 010:486.540    -- Read from C cache (2 bytes @ 0x0800168A)
T23FC 010:486.578   Data:  20 00
T23FC 010:486.603 - 0.094ms returns 2 (0x2)
T23FC 010:486.628 JLINK_ReadMemEx(0x0800168C, 0x3C Bytes, Flags = 0x02000000)
T23FC 010:486.647    -- Read from C cache (60 bytes @ 0x0800168C)
T23FC 010:486.675   Data:  78 B1 08 49 09 1D 09 68 C8 B2 74 28 03 D1 01 21 ...
T23FC 010:486.700 - 0.080ms returns 60 (0x3C)
T23FC 010:486.724 JLINK_ReadMemEx(0x0800168C, 0x2 Bytes, Flags = 0x02000000)
T23FC 010:486.743    -- Read from C cache (2 bytes @ 0x0800168C)
T23FC 010:486.769   Data:  78 B1
T23FC 010:486.794 - 0.083ms returns 2 (0x2)
T23FC 010:486.823 JLINK_ReadMemEx(0x0800168C, 0x3C Bytes, Flags = 0x02000000)
T23FC 010:486.842    -- Read from C cache (60 bytes @ 0x0800168C)
T23FC 010:486.869   Data:  78 B1 08 49 09 1D 09 68 C8 B2 74 28 03 D1 01 21 ...
T23FC 010:486.894 - 0.079ms returns 60 (0x3C)
T23FC 010:486.918 JLINK_ReadMemEx(0x0800168C, 0x2 Bytes, Flags = 0x02000000)
T23FC 010:486.937    -- Read from C cache (2 bytes @ 0x0800168C)
T23FC 010:486.963   Data:  78 B1
T23FC 010:486.989 - 0.079ms returns 2 (0x2)
T23FC 010:487.012 JLINK_ReadMemEx(0x0800168E, 0x2 Bytes, Flags = 0x02000000)
T23FC 010:487.031    -- Read from C cache (2 bytes @ 0x0800168E)
T23FC 010:487.056   Data:  08 49
T23FC 010:487.082 - 0.078ms returns 2 (0x2)
T23FC 010:487.106 JLINK_HasError()
T23FC 010:487.130 JLINK_Step()
T23FC 010:487.151    -- Read from C cache (2 bytes @ 0x0800168C)
T23FC 010:487.179   -- Simulated
T23FC 010:487.204 - 0.083ms returns 0
T23FC 010:487.228 JLINK_HasError()
T23FC 010:487.252 JLINK_ReadReg(R15 (PC))
T23FC 010:487.271 - 0.027ms returns 0x0800168E
T23FC 010:487.294 JLINK_ReadReg(XPSR)
T23FC 010:487.313 - 0.027ms returns 0x61000057
T23FC 010:487.415 JLINK_HasError()
T23FC 010:487.441 JLINK_ReadReg(R0)
T23FC 010:487.460 - 0.028ms returns 0x00000020
